T4B90 000:046.653   SEGGER J-Link V7.96e Log File
T4B90 000:046.764   DLL Compiled: Apr 17 2024 16:21:58
T4B90 000:046.768   Logging started @ 2025-01-08 12:46
T4B90 000:046.773   Process: D:\Keil_v5\UV4\UV4.exe
T4B90 000:046.780 - 46.777ms
T4B90 000:046.789 JLINK_SetWarnOutHandler(...)
T4B90 000:046.793 - 0.005ms
T4B90 000:046.798 JLINK_OpenEx(...)
T4B90 000:049.396   Firmware: J-Link V9 compiled May  7 2021 16:26:12
T4B90 000:050.739   Firmware: J-Link V9 compiled May  7 2021 16:26:12
T4B90 000:050.852   Decompressing FW timestamp took 99 us
T4B90 000:061.027   Hardware: V9.40
T4B90 000:061.047   S/N: 69407684
T4B90 000:061.053   OEM: SEGGER
T4B90 000:061.059   Feature(s): RDI, GDB, FlashDL, FlashBP, JFlash
T4B90 000:062.326   Bootloader: (Could not read)
T4B90 000:063.825   TELNET listener socket opened on port 19021
T4B90 000:063.910   WEBSRV WEBSRV_Init(): Starting webserver thread(s)
T4B90 000:064.003   WEBSRV Webserver running on local port 19080
T4B90 000:064.200   Looking for J-Link GUI Server exe at: D:\Keil_v5\ARM\Segger\JLinkGUIServer.exe
T4B90 000:064.230   Looking for J-Link GUI Server exe at: E:\Program Files\SEGGER\JLink_V796e\JLinkGUIServer.exe
T4B90 000:064.242   Forking J-Link GUI Server: E:\Program Files\SEGGER\JLink_V796e\JLinkGUIServer.exe
T4B90 000:068.006   J-Link GUI Server info: "J-Link GUI server V7.96e "
T4B90 000:068.241 - 21.428ms returns "O.K."
T4B90 000:068.258 JLINK_SetErrorOutHandler(...)
T4B90 000:068.262 - 0.004ms
T4B90 000:068.284 JLINK_ExecCommand("ProjectFile = "F:\Download\ChenFly\ChenFly\MDK-ARM\JLinkSettings.ini"", ...). 
T4B90 000:079.524   Ref file found at: D:\Keil_v5\ARM\Segger\JLinkDevices.ref
T4B90 000:079.604   REF file references invalid XML file: E:\Program Files\SEGGER\JLink_V796e\JLinkDevices.xml
T4B90 000:080.695 - 12.411ms returns 0x00
T4B90 000:080.736 JLINK_ExecCommand("Device = STM32F405RGTx", ...). 
T4B90 000:081.192   Device "STM32F405RG" selected.
T4B90 000:081.591 - 0.848ms returns 0x00
T4B90 000:081.601 JLINK_ExecCommand("DisableConnectionTimeout", ...). 
T4B90 000:081.609 - 0.001ms returns 0x01
T4B90 000:081.614 JLINK_GetHardwareVersion()
T4B90 000:081.619 - 0.004ms returns 94000
T4B90 000:081.626 JLINK_GetDLLVersion()
T4B90 000:081.630 - 0.005ms returns 79605
T4B90 000:081.636 JLINK_GetOEMString(...)
T4B90 000:081.641 JLINK_GetFirmwareString(...)
T4B90 000:081.645 - 0.004ms
T4B90 000:081.662 JLINK_GetDLLVersion()
T4B90 000:081.666 - 0.004ms returns 79605
T4B90 000:081.671 JLINK_GetCompileDateTime()
T4B90 000:081.675 - 0.004ms
T4B90 000:081.683 JLINK_GetFirmwareString(...)
T4B90 000:081.687 - 0.004ms
T4B90 000:081.695 JLINK_GetHardwareVersion()
T4B90 000:081.699 - 0.004ms returns 94000
T4B90 000:081.707 JLINK_GetSN()
T4B90 000:081.711 - 0.004ms returns 69407684
T4B90 000:081.718 JLINK_GetOEMString(...)
T4B90 000:081.728 JLINK_TIF_Select(JLINKARM_TIF_SWD)
T4B90 000:083.201 - 1.472ms returns 0x00
T4B90 000:083.213 JLINK_HasError()
T4B90 000:083.225 JLINK_SetSpeed(2000)
T4B90 000:083.731 - 0.506ms
T4B90 000:083.742 JLINK_GetId()
T4B90 000:084.236   InitTarget() start
T4B90 000:084.243    J-Link Script File: Executing InitTarget()
T4B90 000:084.679   SWD selected. Executing JTAG -> SWD switching sequence.
T4B90 000:088.245   DAP initialized successfully.
T4B90 000:099.701   InitTarget() end - Took 15.4ms
T4B90 000:101.068   Found SW-DP with ID 0x2BA01477
T4B90 000:105.421   DPIDR: 0x2BA01477
T4B90 000:105.431   CoreSight SoC-400 or earlier
T4B90 000:105.440   Scanning AP map to find all available APs
T4B90 000:106.663   AP[1]: Stopped AP scan as end of AP map has been reached
T4B90 000:106.677   AP[0]: AHB-AP (IDR: 0x24770011)
T4B90 000:106.686   Iterating through AP map to find AHB-AP to use
T4B90 000:108.475   AP[0]: Core found
T4B90 000:108.485   AP[0]: AHB-AP ROM base: 0xE00FF000
T4B90 000:109.332   CPUID register: 0x410FC241. Implementer code: 0x41 (ARM)
T4B90 000:109.352   Found Cortex-M4 r0p1, Little endian.
T4B90 000:110.215   -- Max. mem block: 0x00010E60
T4B90 000:111.329   CPU_ReadMem(4 bytes @ 0xE000EDF0)
T4B90 000:112.118   CPU_ReadMem(4 bytes @ 0xE0002000)
T4B90 000:112.810   FPUnit: 6 code (BP) slots and 2 literal slots
T4B90 000:112.818   CPU_ReadMem(4 bytes @ 0xE000EDFC)
T4B90 000:113.611   CPU_WriteMem(4 bytes @ 0xE000EDFC)
T4B90 000:114.341   CPU_ReadMem(4 bytes @ 0xE0001000)
T4B90 000:115.069   CPU_WriteMem(4 bytes @ 0xE0001000)
T4B90 000:115.809   CPU_ReadMem(4 bytes @ 0xE000ED88)
T4B90 000:116.640   CPU_WriteMem(4 bytes @ 0xE000ED88)
T4B90 000:117.331   CPU_ReadMem(4 bytes @ 0xE000ED88)
T4B90 000:118.077   CPU_WriteMem(4 bytes @ 0xE000ED88)
T4B90 000:118.796   CoreSight components:
T4B90 000:118.806   ROMTbl[0] @ E00FF000
T4B90 000:118.813   CPU_ReadMem(64 bytes @ 0xE00FF000)
T4B90 000:120.314   CPU_ReadMem(32 bytes @ 0xE000EFE0)
T4B90 000:121.324   [0][0]: E000E000 CID B105E00D PID 000BB00C SCS-M7
T4B90 000:121.338   CPU_ReadMem(32 bytes @ 0xE0001FE0)
T4B90 000:122.420   [0][1]: E0001000 CID B105E00D PID 003BB002 DWT
T4B90 000:122.430   CPU_ReadMem(32 bytes @ 0xE0002FE0)
T4B90 000:123.502   [0][2]: E0002000 CID B105E00D PID 002BB003 FPB
T4B90 000:123.523   CPU_ReadMem(32 bytes @ 0xE0000FE0)
T4B90 000:124.579   [0][3]: E0000000 CID B105E00D PID 003BB001 ITM
T4B90 000:124.599   CPU_ReadMem(32 bytes @ 0xE0040FE0)
T4B90 000:125.928   [0][4]: E0040000 CID B105900D PID 000BB9A1 TPIU
T4B90 000:125.936   CPU_ReadMem(32 bytes @ 0xE0041FE0)
T4B90 000:126.943   [0][5]: E0041000 CID B105900D PID 000BB925 ETM
T4B90 000:127.611 - 43.868ms returns 0x2BA01477
T4B90 000:127.623 JLINK_GetDLLVersion()
T4B90 000:127.628 - 0.004ms returns 79605
T4B90 000:127.633 JLINK_CORE_GetFound()
T4B90 000:127.637 - 0.004ms returns 0xE0000FF
T4B90 000:127.690 JLINK_GetDebugInfo(0x100 = JLINKARM_ROM_TABLE_ADDR_INDEX)
T4B90 000:127.695   Value=0xE00FF000
T4B90 000:127.701 - 0.011ms returns 0
T4B90 000:127.712 JLINK_GetDebugInfo(0x100 = JLINKARM_ROM_TABLE_ADDR_INDEX)
T4B90 000:127.716   Value=0xE00FF000
T4B90 000:127.722 - 0.010ms returns 0
T4B90 000:127.727 JLINK_GetDebugInfo(0x101 = JLINKARM_DEBUG_INFO_ETM_ADDR_INDEX)
T4B90 000:127.731   Value=0xE0041000
T4B90 000:127.737 - 0.010ms returns 0
T4B90 000:127.741 JLINK_GetDebugInfo(0x102 = JLINKARM_DEBUG_INFO_MTB_ADDR_INDEX)
T4B90 000:127.745   Value=0x00000000
T4B90 000:127.751 - 0.009ms returns 0
T4B90 000:127.756 JLINK_GetDebugInfo(0x103 = JLINKARM_DEBUG_INFO_TPIU_ADDR_INDEX)
T4B90 000:127.760   Value=0xE0040000
T4B90 000:127.766 - 0.009ms returns 0
T4B90 000:127.770 JLINK_GetDebugInfo(0x104 = JLINKARM_DEBUG_INFO_ITM_ADDR_INDEX)
T4B90 000:127.774   Value=0xE0000000
T4B90 000:127.780 - 0.009ms returns 0
T4B90 000:127.785 JLINK_GetDebugInfo(0x105 = JLINKARM_DEBUG_INFO_DWT_ADDR_INDEX)
T4B90 000:127.789   Value=0xE0001000
T4B90 000:127.794 - 0.009ms returns 0
T4B90 000:127.799 JLINK_GetDebugInfo(0x106 = JLINKARM_DEBUG_INFO_FPB_ADDR_INDEX)
T4B90 000:127.803   Value=0xE0002000
T4B90 000:127.809 - 0.009ms returns 0
T4B90 000:127.814 JLINK_GetDebugInfo(0x107 = JLINKARM_DEBUG_INFO_NVIC_ADDR_INDEX)
T4B90 000:127.817   Value=0xE000E000
T4B90 000:127.823 - 0.009ms returns 0
T4B90 000:127.828 JLINK_GetDebugInfo(0x10C = JLINKARM_DEBUG_INFO_DBG_ADDR_INDEX)
T4B90 000:127.832   Value=0xE000EDF0
T4B90 000:127.838 - 0.009ms returns 0
T4B90 000:127.843 JLINK_ReadMemU32(0xE000EF40, 0x1 Items)
T4B90 000:127.863   CPU_ReadMem(4 bytes @ 0xE000EF40)
T4B90 000:128.577   Data:  21 00 11 10
T4B90 000:128.585 - 0.741ms returns 1 (0x1)
T4B90 000:128.590 JLINK_ReadMemU32(0xE000EF44, 0x1 Items)
T4B90 000:128.595   CPU_ReadMem(4 bytes @ 0xE000EF44)
T4B90 000:129.250   Data:  11 00 00 11
T4B90 000:129.257 - 0.667ms returns 1 (0x1)
T4B90 000:129.263 JLINK_ReadMemU32(0xE000ED00, 0x1 Items)
T4B90 000:129.268   CPU_ReadMem(4 bytes @ 0xE000ED00)
T4B90 000:129.936   Data:  41 C2 0F 41
T4B90 000:129.944   Debug reg: CPUID
T4B90 000:129.950 - 0.687ms returns 1 (0x1)
T4B90 000:129.956 JLINK_HasError()
T4B90 000:129.962 JLINK_SetResetType(JLINKARM_CM3_RESET_TYPE_NORMAL)
T4B90 000:129.967 - 0.004ms returns JLINKARM_CM3_RESET_TYPE_NORMAL
T4B90 000:129.972 JLINK_Reset()
T4B90 000:129.987   CPU is running
T4B90 000:129.994   CPU_WriteMem(4 bytes @ 0xE000EDF0)
T4B90 000:130.801   CPU is running
T4B90 000:130.809   CPU_WriteMem(4 bytes @ 0xE000EDFC)
T4B90 000:131.583   Reset: Halt core after reset via DEMCR.VC_CORERESET.
T4B90 000:132.496   Reset: Reset device via AIRCR.SYSRESETREQ.
T4B90 000:132.504   CPU is running
T4B90 000:132.510   CPU_WriteMem(4 bytes @ 0xE000ED0C)
T4B90 000:187.001   CPU_ReadMem(4 bytes @ 0xE000EDF0)
T4B90 000:187.709   CPU_ReadMem(4 bytes @ 0xE000EDF0)
T4B90 000:193.928   CPU_WriteMem(4 bytes @ 0xE000EDFC)
T4B90 000:200.102   CPU_ReadMem(4 bytes @ 0xE000EDF0)
T4B90 000:206.406   CPU_WriteMem(4 bytes @ 0xE0002000)
T4B90 000:207.117   CPU_ReadMem(4 bytes @ 0xE000EDFC)
T4B90 000:207.831   CPU_ReadMem(4 bytes @ 0xE0001000)
T4B90 000:208.578 - 78.606ms
T4B90 000:208.591 JLINK_HasError()
T4B90 000:208.601 JLINK_ReadReg(R15 (PC))
T4B90 000:208.607 - 0.010ms returns 0x08000248
T4B90 000:208.612 JLINK_ReadReg(XPSR)
T4B90 000:208.616 - 0.004ms returns 0x01000000
T4B90 000:208.621 JLINK_Halt()
T4B90 000:208.625 - 0.003ms returns 0x00
T4B90 000:208.629 JLINK_IsHalted()
T4B90 000:208.634 - 0.004ms returns TRUE
T4B90 000:208.639 JLINK_ReadMemU32(0xE000EDF0, 0x1 Items)
T4B90 000:208.646   CPU_ReadMem(4 bytes @ 0xE000EDF0)
T4B90 000:209.340   Data:  03 00 03 00
T4B90 000:209.347   Debug reg: DHCSR
T4B90 000:209.352 - 0.714ms returns 1 (0x1)
T4B90 000:209.359 JLINK_WriteU32_64(0xE000EDF0, 0xA05F0003)
T4B90 000:209.362   Debug reg: DHCSR
T4B90 000:209.543   CPU_WriteMem(4 bytes @ 0xE000EDF0)
T4B90 000:210.307 - 0.947ms returns 0 (0x00000000)
T4B90 000:210.325 JLINK_WriteU32_64(0xE000EDFC, 0x01000000)
T4B90 000:210.330   Debug reg: DEMCR
T4B90 000:210.351   CPU_WriteMem(4 bytes @ 0xE000EDFC)
T4B90 000:211.060 - 0.735ms returns 0 (0x00000000)
T4B90 000:211.115 JLINK_GetHWStatus(...)
T4B90 000:211.450 - 0.334ms returns 0
T4B90 000:211.466 JLINK_GetNumBPUnits(Type = 0xFFFFFF00)
T4B90 000:211.471 - 0.004ms returns 0x06
T4B90 000:211.475 JLINK_GetNumBPUnits(Type = 0xF0)
T4B90 000:211.479 - 0.003ms returns 0x2000
T4B90 000:211.483 JLINK_GetNumWPUnits()
T4B90 000:211.487 - 0.003ms returns 4
T4B90 000:211.498 JLINK_GetSpeed()
T4B90 000:211.502 - 0.004ms returns 2000
T4B90 000:211.541 JLINK_ReadMemU32(0xE000E004, 0x1 Items)
T4B90 000:211.549   CPU_ReadMem(4 bytes @ 0xE000E004)
T4B90 000:212.227   Data:  02 00 00 00
T4B90 000:212.247 - 0.698ms returns 1 (0x1)
T4B90 000:212.252 JLINK_ReadMemU32(0xE000E004, 0x1 Items)
T4B90 000:212.258   CPU_ReadMem(4 bytes @ 0xE000E004)
T4B90 000:213.093   Data:  02 00 00 00
T4B90 000:213.107 - 0.849ms returns 1 (0x1)
T4B90 000:213.121 JLINK_WriteMem(0xE0001000, 0x1C Bytes, ...)
T4B90 000:213.126   Data:  01 00 00 00 00 00 00 00 00 00 00 00 00 00 00 00 ...
T4B90 000:213.136   CPU_WriteMem(28 bytes @ 0xE0001000)
T4B90 000:214.124 - 1.000ms returns 0x1C
T4B90 000:214.139 JLINK_ReadMem(0xE0001000, 0x1C Bytes, ...)
T4B90 000:214.147   CPU_ReadMem(28 bytes @ 0xE0001000)
T4B90 000:215.169   Data:  01 00 00 40 00 00 00 00 00 00 00 00 00 00 00 00 ...
T4B90 000:215.185 - 1.046ms returns 0
T4B90 000:215.194 JLINK_HasError()
T4B90 000:215.200 JLINK_ReadReg(R15 (PC))
T4B90 000:215.206 - 0.006ms returns 0x08000248
T4B90 000:215.211 JLINK_ReadReg(XPSR)
T4B90 000:215.216 - 0.004ms returns 0x01000000
T4B90 000:296.495 JLINK_HasError()
T4B90 000:296.520 JLINK_SetResetType(JLINKARM_CM3_RESET_TYPE_NORMAL)
T4B90 000:296.526 - 0.006ms returns JLINKARM_CM3_RESET_TYPE_NORMAL
T4B90 000:296.531 JLINK_Reset()
T4B90 000:296.546   CPU_WriteMem(4 bytes @ 0xE000EDF0)
T4B90 000:297.399   CPU_WriteMem(4 bytes @ 0xE000EDFC)
T4B90 000:298.155   Reset: Halt core after reset via DEMCR.VC_CORERESET.
T4B90 000:299.074   Reset: Reset device via AIRCR.SYSRESETREQ.
T4B90 000:299.082   CPU_WriteMem(4 bytes @ 0xE000ED0C)
T4B90 000:353.910   CPU_ReadMem(4 bytes @ 0xE000EDF0)
T4B90 000:354.628   CPU_ReadMem(4 bytes @ 0xE000EDF0)
T4B90 000:355.537   CPU_WriteMem(4 bytes @ 0xE000EDFC)
T4B90 000:362.562   CPU_ReadMem(4 bytes @ 0xE000EDF0)
T4B90 000:368.770   CPU_WriteMem(4 bytes @ 0xE0002000)
T4B90 000:369.449   CPU_ReadMem(4 bytes @ 0xE000EDFC)
T4B90 000:370.200   CPU_ReadMem(4 bytes @ 0xE0001000)
T4B90 000:370.865 - 74.334ms
T4B90 000:370.934 JLINK_HasError()
T4B90 000:370.940 JLINK_ReadReg(R15 (PC))
T4B90 000:370.947 - 0.006ms returns 0x08000248
T4B90 000:370.951 JLINK_ReadReg(XPSR)
T4B90 000:370.955 - 0.004ms returns 0x01000000
T4B90 000:371.393 JLINK_ReadMem(0x08000188, 0x3C Bytes, ...)
T4B90 000:371.406   CPU_ReadMem(128 bytes @ 0x08000180)
T4B90 000:373.478    -- Updating C cache (128 bytes @ 0x08000180)
T4B90 000:373.486    -- Read from C cache (60 bytes @ 0x08000188)
T4B90 000:373.493   Data:  00 F0 02 F8 00 F0 4C F8 0A A0 90 E8 00 0C 82 44 ...
T4B90 000:373.498 - 2.105ms returns 0
T4B90 000:373.508 JLINK_ReadMem(0x080001C4, 0x3C Bytes, ...)
T4B90 000:373.513    -- Read from C cache (60 bytes @ 0x080001C4)
T4B90 000:373.519   Data:  0A 44 10 F8 01 4B 14 F0 0F 05 08 BF 10 F8 01 5B ...
T4B90 000:373.524 - 0.016ms returns 0
T4B90 000:373.531 JLINK_ReadMem(0x08000200, 0x3C Bytes, ...)
T4B90 000:373.536   CPU_ReadMem(64 bytes @ 0x08000200)
T4B90 000:374.925    -- Updating C cache (64 bytes @ 0x08000200)
T4B90 000:374.932    -- Read from C cache (60 bytes @ 0x08000200)
T4B90 000:374.938   Data:  00 23 00 24 00 25 00 26 10 3A 28 BF 78 C1 FB D8 ...
T4B90 000:374.944 - 1.412ms returns 0
T4B90 000:374.952 JLINK_ReadMem(0x0800023C, 0x3C Bytes, ...)
T4B90 000:374.957   CPU_ReadMem(64 bytes @ 0x08000240)
T4B90 000:376.370    -- Updating C cache (64 bytes @ 0x08000240)
T4B90 000:376.378    -- Read from C cache (60 bytes @ 0x0800023C)
T4B90 000:376.384   Data:  FF F7 F2 FF 03 BC 00 F0 03 F9 00 00 09 48 80 47 ...
T4B90 000:376.389 - 1.437ms returns 0
T4B90 000:465.329 JLINK_ReadMem(0x40011000, 0x18 Bytes, ...)
T4B90 000:465.359   CPU_ReadMem(24 bytes @ 0x40011000)
T4B90 000:466.316   Data:  00 00 00 00 00 00 00 00 00 00 00 00 00 00 00 00 ...
T4B90 000:466.328 - 0.999ms returns 0
T4B90 000:466.388 JLINK_ReadMem(0x40011018, 0x4 Bytes, ...)
T4B90 000:466.396   CPU_ReadMem(4 bytes @ 0x40011018)
T4B90 000:467.141   Data:  00 00 00 00
T4B90 000:467.149 - 0.761ms returns 0
T19C0 001:491.574 JLINK_HasError()
T19C0 001:491.605 JLINK_SetBPEx(Addr = 0x08004954, Type = 0xFFFFFFF2)
T19C0 001:491.614 - 0.009ms returns 0x00000001
T19C0 001:491.619 JLINK_HasError()
T19C0 001:491.624 JLINK_SetBPEx(Addr = 0x08004C7E, Type = 0xFFFFFFF2)
T19C0 001:491.628 - 0.004ms returns 0x00000002
T19C0 001:491.633 JLINK_HasError()
T19C0 001:491.638 JLINK_HasError()
T19C0 001:491.643 JLINK_Go()
T19C0 001:492.411   CPU_WriteMem(4 bytes @ 0xE0002000)
T19C0 001:493.125   CPU_WriteMem(4 bytes @ 0xE0002000)
T19C0 001:493.826   CPU_ReadMem(4 bytes @ 0xE0001000)
T19C0 001:494.569   CPU_WriteMem(4 bytes @ 0xE0002008)
T19C0 001:494.587   CPU_WriteMem(4 bytes @ 0xE000200C)
T19C0 001:494.593   CPU_WriteMem(4 bytes @ 0xE0002010)
T19C0 001:494.599   CPU_WriteMem(4 bytes @ 0xE0002014)
T19C0 001:494.605   CPU_WriteMem(4 bytes @ 0xE0002018)
T19C0 001:494.611   CPU_WriteMem(4 bytes @ 0xE000201C)
T19C0 001:497.000   CPU_WriteMem(4 bytes @ 0xE0001004)
T19C0 001:498.853   Memory map 'after startup completion point' is active
T19C0 001:498.868 - 7.225ms
T19C0 001:599.760 JLINK_HasError()
T19C0 001:599.782 JLINK_IsHalted()
T19C0 001:605.480 - 5.697ms returns TRUE
T19C0 001:605.496 JLINK_HasError()
T19C0 001:605.598 JLINK_Halt()
T19C0 001:605.611 - 0.012ms returns 0x00
T19C0 001:605.616 JLINK_IsHalted()
T19C0 001:605.621 - 0.004ms returns TRUE
T19C0 001:605.626 JLINK_IsHalted()
T19C0 001:605.630 - 0.004ms returns TRUE
T19C0 001:605.635 JLINK_IsHalted()
T19C0 001:605.639 - 0.004ms returns TRUE
T19C0 001:605.644 JLINK_HasError()
T19C0 001:605.650 JLINK_ReadReg(R15 (PC))
T19C0 001:605.658 - 0.007ms returns 0x08004954
T19C0 001:605.663 JLINK_ReadReg(XPSR)
T19C0 001:605.668 - 0.004ms returns 0x21000000
T19C0 001:605.673 JLINK_HasError()
T19C0 001:605.678 JLINK_ClrBPEx(BPHandle = 0x00000001)
T19C0 001:605.683 - 0.004ms returns 0x00
T19C0 001:605.735 JLINK_HasError()
T19C0 001:605.742 JLINK_ClrBPEx(BPHandle = 0x00000002)
T19C0 001:605.746 - 0.004ms returns 0x00
T19C0 001:605.750 JLINK_HasError()
T19C0 001:605.755 JLINK_HasError()
T19C0 001:605.760 JLINK_ReadMemU32(0xE000ED30, 0x1 Items)
T19C0 001:605.771   CPU_ReadMem(4 bytes @ 0xE000ED30)
T19C0 001:606.559   Data:  02 00 00 00
T19C0 001:606.571 - 0.810ms returns 1 (0x1)
T19C0 001:606.577 JLINK_ReadMemU32(0xE0001028, 0x1 Items)
T19C0 001:606.585   CPU_ReadMem(4 bytes @ 0xE0001028)
T19C0 001:607.318   Data:  00 00 00 00
T19C0 001:607.332   Debug reg: DWT_FUNC[0]
T19C0 001:607.338 - 0.761ms returns 1 (0x1)
T19C0 001:607.346 JLINK_ReadMemU32(0xE0001038, 0x1 Items)
T19C0 001:607.358   CPU_ReadMem(4 bytes @ 0xE0001038)
T19C0 001:608.241   Data:  00 02 00 00
T19C0 001:608.253   Debug reg: DWT_FUNC[1]
T19C0 001:608.259 - 0.913ms returns 1 (0x1)
T19C0 001:608.265 JLINK_ReadMemU32(0xE0001048, 0x1 Items)
T19C0 001:608.273   CPU_ReadMem(4 bytes @ 0xE0001048)
T19C0 001:609.012   Data:  00 00 00 00
T19C0 001:609.032   Debug reg: DWT_FUNC[2]
T19C0 001:609.039 - 0.772ms returns 1 (0x1)
T19C0 001:609.046 JLINK_ReadMemU32(0xE0001058, 0x1 Items)
T19C0 001:609.055   CPU_ReadMem(4 bytes @ 0xE0001058)
T19C0 001:609.748   Data:  00 00 00 00
T19C0 001:609.773   Debug reg: DWT_FUNC[3]
T19C0 001:609.781 - 0.735ms returns 1 (0x1)
T19C0 001:609.931 JLINK_HasError()
T19C0 001:609.939 JLINK_ReadReg(R0)
T19C0 001:609.947 - 0.008ms returns 0x200006D8
T19C0 001:609.952 JLINK_ReadReg(R1)
T19C0 001:609.956 - 0.004ms returns 0x200008D8
T19C0 001:609.961 JLINK_ReadReg(R2)
T19C0 001:609.965 - 0.004ms returns 0x200008D8
T19C0 001:609.970 JLINK_ReadReg(R3)
T19C0 001:609.974 - 0.003ms returns 0x200008D8
T19C0 001:609.978 JLINK_ReadReg(R4)
T19C0 001:609.982 - 0.004ms returns 0x00000000
T19C0 001:609.987 JLINK_ReadReg(R5)
T19C0 001:609.991 - 0.004ms returns 0x20000674
T19C0 001:609.996 JLINK_ReadReg(R6)
T19C0 001:610.002 - 0.005ms returns 0x00000000
T19C0 001:610.012 JLINK_ReadReg(R7)
T19C0 001:610.023 - 0.010ms returns 0x00000000
T19C0 001:610.028 JLINK_ReadReg(R8)
T19C0 001:610.032 - 0.004ms returns 0x00000000
T19C0 001:610.036 JLINK_ReadReg(R9)
T19C0 001:610.040 - 0.004ms returns 0x00000000
T19C0 001:610.045 JLINK_ReadReg(R10)
T19C0 001:610.049 - 0.004ms returns 0x08005B90
T19C0 001:610.054 JLINK_ReadReg(R11)
T19C0 001:610.058 - 0.004ms returns 0x00000000
T19C0 001:610.063 JLINK_ReadReg(R12)
T19C0 001:610.067 - 0.004ms returns 0x200006B4
T19C0 001:610.077 JLINK_ReadReg(R13 (SP))
T19C0 001:610.081 - 0.010ms returns 0x20000CD8
T19C0 001:610.086 JLINK_ReadReg(R14)
T19C0 001:610.090 - 0.003ms returns 0x08000237
T19C0 001:610.094 JLINK_ReadReg(R15 (PC))
T19C0 001:610.099 - 0.004ms returns 0x08004954
T19C0 001:610.103 JLINK_ReadReg(XPSR)
T19C0 001:610.107 - 0.004ms returns 0x21000000
T19C0 001:610.112 JLINK_ReadReg(MSP)
T19C0 001:610.116 - 0.003ms returns 0x20000CD8
T19C0 001:610.120 JLINK_ReadReg(PSP)
T19C0 001:610.124 - 0.003ms returns 0x00000000
T19C0 001:610.129 JLINK_ReadReg(CFBP)
T19C0 001:610.133 - 0.003ms returns 0x04000000
T19C0 001:610.138 JLINK_ReadReg(FPSCR)
T19C0 001:618.669 - 8.530ms returns 0x03000000
T19C0 001:618.679 JLINK_ReadReg(FPS0)
T19C0 001:618.684 - 0.005ms returns 0x00000000
T19C0 001:618.689 JLINK_ReadReg(FPS1)
T19C0 001:618.693 - 0.004ms returns 0x00000000
T19C0 001:618.698 JLINK_ReadReg(FPS2)
T19C0 001:618.702 - 0.004ms returns 0x00000000
T19C0 001:618.707 JLINK_ReadReg(FPS3)
T19C0 001:618.711 - 0.004ms returns 0x00000000
T19C0 001:618.715 JLINK_ReadReg(FPS4)
T19C0 001:618.719 - 0.003ms returns 0x00000000
T19C0 001:618.724 JLINK_ReadReg(FPS5)
T19C0 001:618.728 - 0.004ms returns 0x00000000
T19C0 001:618.732 JLINK_ReadReg(FPS6)
T19C0 001:618.736 - 0.004ms returns 0x00000000
T19C0 001:618.741 JLINK_ReadReg(FPS7)
T19C0 001:618.745 - 0.004ms returns 0x00000000
T19C0 001:618.750 JLINK_ReadReg(FPS8)
T19C0 001:618.754 - 0.004ms returns 0x00000000
T19C0 001:618.758 JLINK_ReadReg(FPS9)
T19C0 001:618.763 - 0.004ms returns 0x00000000
T19C0 001:618.772 JLINK_ReadReg(FPS10)
T19C0 001:618.778 - 0.006ms returns 0x00000000
T19C0 001:618.783 JLINK_ReadReg(FPS11)
T19C0 001:618.787 - 0.004ms returns 0x00000000
T19C0 001:618.792 JLINK_ReadReg(FPS12)
T19C0 001:618.796 - 0.004ms returns 0x00000000
T19C0 001:618.800 JLINK_ReadReg(FPS13)
T19C0 001:618.804 - 0.004ms returns 0x00000000
T19C0 001:618.809 JLINK_ReadReg(FPS14)
T19C0 001:618.813 - 0.004ms returns 0x00000000
T19C0 001:618.818 JLINK_ReadReg(FPS15)
T19C0 001:618.822 - 0.004ms returns 0x00000000
T19C0 001:618.826 JLINK_ReadReg(FPS16)
T19C0 001:618.830 - 0.004ms returns 0x00000000
T19C0 001:618.835 JLINK_ReadReg(FPS17)
T19C0 001:618.839 - 0.003ms returns 0x00000000
T19C0 001:618.843 JLINK_ReadReg(FPS18)
T19C0 001:618.847 - 0.004ms returns 0x00000000
T19C0 001:618.852 JLINK_ReadReg(FPS19)
T19C0 001:618.856 - 0.003ms returns 0x00000000
T19C0 001:618.861 JLINK_ReadReg(FPS20)
T19C0 001:618.865 - 0.003ms returns 0x00000000
T19C0 001:618.869 JLINK_ReadReg(FPS21)
T19C0 001:618.873 - 0.003ms returns 0x00000000
T19C0 001:618.877 JLINK_ReadReg(FPS22)
T19C0 001:618.881 - 0.004ms returns 0x00000000
T19C0 001:618.886 JLINK_ReadReg(FPS23)
T19C0 001:618.890 - 0.004ms returns 0x00000000
T19C0 001:618.895 JLINK_ReadReg(FPS24)
T19C0 001:618.899 - 0.004ms returns 0x00000000
T19C0 001:618.904 JLINK_ReadReg(FPS25)
T19C0 001:618.908 - 0.004ms returns 0x00000000
T19C0 001:618.913 JLINK_ReadReg(FPS26)
T19C0 001:618.917 - 0.004ms returns 0x00000000
T19C0 001:618.921 JLINK_ReadReg(FPS27)
T19C0 001:618.925 - 0.004ms returns 0x00000000
T19C0 001:618.930 JLINK_ReadReg(FPS28)
T19C0 001:618.934 - 0.004ms returns 0x00000000
T19C0 001:618.939 JLINK_ReadReg(FPS29)
T19C0 001:618.943 - 0.004ms returns 0x00000000
T19C0 001:618.947 JLINK_ReadReg(FPS30)
T19C0 001:618.951 - 0.003ms returns 0x00000000
T19C0 001:618.956 JLINK_ReadReg(FPS31)
T19C0 001:618.960 - 0.003ms returns 0x00000000
T4B90 001:623.076 JLINK_HasError()
T4B90 001:623.091 JLINK_ReadMemU32(0xE0001004, 0x1 Items)
T4B90 001:623.103   CPU_ReadMem(4 bytes @ 0xE0001004)
T4B90 001:623.803   Data:  8A 0D 00 00
T4B90 001:623.811   Debug reg: DWT_CYCCNT
T4B90 001:623.818 - 0.727ms returns 1 (0x1)
T4B90 001:623.936 JLINK_ReadMem(0x40011000, 0x18 Bytes, ...)
T4B90 001:623.944   CPU_ReadMem(24 bytes @ 0x40011000)
T4B90 001:624.843   Data:  00 00 00 00 00 00 00 00 00 00 00 00 00 00 00 00 ...
T4B90 001:624.851 - 0.914ms returns 0
T4B90 001:624.857 JLINK_ReadMem(0x40011018, 0x4 Bytes, ...)
T4B90 001:624.863   CPU_ReadMem(4 bytes @ 0x40011018)
T4B90 001:625.607   Data:  00 00 00 00
T4B90 001:625.619 - 0.761ms returns 0
T4B90 001:627.246 JLINK_ReadMem(0x08004854, 0x3C Bytes, ...)
T4B90 001:627.262   CPU_ReadMem(128 bytes @ 0x08004840)
T4B90 001:629.362    -- Updating C cache (128 bytes @ 0x08004840)
T4B90 001:629.371    -- Read from C cache (60 bytes @ 0x08004854)
T4B90 001:629.378   Data:  00 90 2B 46 11 46 06 48 FD F7 79 F9 30 46 BD E8 ...
T4B90 001:629.384 - 2.137ms returns 0
T4B90 001:629.395 JLINK_ReadMem(0x08004890, 0x3C Bytes, ...)
T4B90 001:629.401   CPU_ReadMem(64 bytes @ 0x080048C0)
T4B90 001:630.711    -- Updating C cache (64 bytes @ 0x080048C0)
T4B90 001:630.719    -- Read from C cache (60 bytes @ 0x08004890)
T4B90 001:630.725   Data:  01 40 4F F4 FA 73 02 22 69 46 05 48 FD F7 A6 F8 ...
T4B90 001:630.731 - 1.336ms returns 0
T4B90 001:630.753 JLINK_ReadMem(0x080048CC, 0x3C Bytes, ...)
T4B90 001:630.758   CPU_ReadMem(64 bytes @ 0x08004900)
T4B90 001:632.233    -- Updating C cache (64 bytes @ 0x08004900)
T4B90 001:632.246    -- Read from C cache (60 bytes @ 0x080048CC)
T4B90 001:632.252   Data:  11 0A 80 ED 12 0A 80 ED 13 0A C0 ED 08 0A DF ED ...
T4B90 001:632.258 - 1.505ms returns 0
T4B90 001:632.270 JLINK_ReadMem(0x08004908, 0x3C Bytes, ...)
T4B90 001:632.276   CPU_ReadMem(64 bytes @ 0x08004940)
T4B90 001:633.620    -- Updating C cache (64 bytes @ 0x08004940)
T4B90 001:633.642    -- Read from C cache (60 bytes @ 0x08004908)
T4B90 001:633.658   Data:  14 0A 80 ED 15 0A 80 ED 16 0A 80 ED 17 0A 80 ED ...
T4B90 001:633.670 - 1.400ms returns 0
T4B90 001:633.705 JLINK_ReadMem(0x08004944, 0x3C Bytes, ...)
T4B90 001:633.711    -- Read from C cache (60 bytes @ 0x08004944)
T4B90 001:633.718   Data:  10 40 20 21 FC F7 5F BB 01 22 F7 E7 00 04 02 40 ...
T4B90 001:633.724 - 0.019ms returns 0
T19C0 013:412.168 JLINK_HasError()
T19C0 013:412.194 JLINK_SetBPEx(Addr = 0x08004C7E, Type = 0xFFFFFFF2)
T19C0 013:412.202 - 0.009ms returns 0x00000003
T19C0 013:412.207 JLINK_HasError()
T19C0 013:412.212 JLINK_HasError()
T19C0 013:412.217 JLINK_Go()
T19C0 013:412.974   CPU_WriteMem(4 bytes @ 0xE0002000)
T19C0 013:413.727   CPU_ReadMem(4 bytes @ 0xE0001000)
T19C0 013:414.424   CPU_WriteMem(4 bytes @ 0xE0002008)
T19C0 013:414.434   CPU_WriteMem(4 bytes @ 0xE000200C)
T19C0 013:416.364 - 4.146ms
T19C0 013:517.178 JLINK_HasError()
T19C0 013:517.203 JLINK_IsHalted()
T19C0 013:518.050 - 0.846ms returns FALSE
T19C0 013:618.790 JLINK_HasError()
T19C0 013:618.816 JLINK_IsHalted()
T19C0 013:619.669 - 0.853ms returns FALSE
T19C0 013:720.453 JLINK_HasError()
T19C0 013:720.477 JLINK_IsHalted()
T19C0 013:721.272 - 0.794ms returns FALSE
T19C0 013:821.786 JLINK_HasError()
T19C0 013:821.824 JLINK_IsHalted()
T19C0 013:822.728 - 0.904ms returns FALSE
T19C0 013:923.390 JLINK_HasError()
T19C0 013:923.432 JLINK_HasError()
T19C0 013:923.438 JLINK_ReadMemU32(0xE0001004, 0x1 Items)
T19C0 013:923.472   CPU_ReadMem(4 bytes @ 0xE0001004)
T19C0 013:924.370   Data:  E1 00 13 05
T19C0 013:924.382   Debug reg: DWT_CYCCNT
T19C0 013:924.389 - 0.949ms returns 1 (0x1)
T4B90 013:924.514 JLINK_ReadMem(0x40011000, 0x18 Bytes, ...)
T4B90 013:924.546   CPU_ReadMem(24 bytes @ 0x40011000)
T4B90 013:925.509   Data:  C0 00 00 00 00 00 00 00 D9 02 00 00 1C 21 00 00 ...
T4B90 013:925.518 - 1.004ms returns 0
T4B90 013:925.526 JLINK_ReadMem(0x40011018, 0x4 Bytes, ...)
T4B90 013:925.534   CPU_ReadMem(4 bytes @ 0x40011018)
T4B90 013:926.306   Data:  00 00 00 00
T4B90 013:926.314 - 0.786ms returns 0
T19C0 013:932.266 JLINK_IsHalted()
T19C0 013:933.013 - 0.747ms returns FALSE
T19C0 014:034.005 JLINK_HasError()
T19C0 014:034.029 JLINK_IsHalted()
T19C0 014:034.982 - 0.949ms returns FALSE
T19C0 014:135.637 JLINK_HasError()
T19C0 014:135.656 JLINK_IsHalted()
T19C0 014:136.483 - 0.825ms returns FALSE
T19C0 014:237.006 JLINK_HasError()
T19C0 014:237.066 JLINK_IsHalted()
T19C0 014:237.883 - 0.816ms returns FALSE
T19C0 014:337.954 JLINK_HasError()
T19C0 014:337.995 JLINK_IsHalted()
T19C0 014:338.749 - 0.752ms returns FALSE
T19C0 014:439.450 JLINK_HasError()
T19C0 014:439.470 JLINK_HasError()
T19C0 014:439.475 JLINK_ReadMemU32(0xE0001004, 0x1 Items)
T19C0 014:439.490   Data:  E1 00 13 05
T19C0 014:439.498   Debug reg: DWT_CYCCNT
T19C0 014:439.502 - 0.026ms returns 1 (0x1)
T4B90 014:439.589 JLINK_ReadMem(0x40011000, 0x18 Bytes, ...)
T4B90 014:439.610   CPU_ReadMem(24 bytes @ 0x40011000)
T4B90 014:440.621   Data:  C0 00 00 00 00 00 00 00 D9 02 00 00 1C 21 00 00 ...
T4B90 014:440.629 - 1.039ms returns 0
T4B90 014:440.635 JLINK_ReadMem(0x40011018, 0x4 Bytes, ...)
T4B90 014:440.642   CPU_ReadMem(4 bytes @ 0x40011018)
T4B90 014:441.349   Data:  00 00 00 00
T4B90 014:441.358 - 0.723ms returns 0
T19C0 014:441.715 JLINK_IsHalted()
T19C0 014:442.565 - 0.849ms returns FALSE
T19C0 014:542.968 JLINK_HasError()
T19C0 014:543.005 JLINK_IsHalted()
T19C0 014:543.781 - 0.775ms returns FALSE
T19C0 014:644.282 JLINK_HasError()
T19C0 014:644.301 JLINK_IsHalted()
T19C0 014:645.120 - 0.818ms returns FALSE
T19C0 014:745.285 JLINK_HasError()
T19C0 014:745.307 JLINK_IsHalted()
T19C0 014:746.078 - 0.770ms returns FALSE
T19C0 014:846.318 JLINK_HasError()
T19C0 014:846.344 JLINK_IsHalted()
T19C0 014:847.149 - 0.804ms returns FALSE
T19C0 014:947.386 JLINK_HasError()
T19C0 014:947.411 JLINK_IsHalted()
T19C0 014:948.246 - 0.834ms returns FALSE
T19C0 015:049.190 JLINK_HasError()
T19C0 015:049.216 JLINK_HasError()
T19C0 015:049.222 JLINK_ReadMemU32(0xE0001004, 0x1 Items)
T19C0 015:049.238   Data:  E1 00 13 05
T19C0 015:049.245   Debug reg: DWT_CYCCNT
T19C0 015:049.272 - 0.049ms returns 1 (0x1)
T4B90 015:049.338 JLINK_ReadMem(0x40011000, 0x18 Bytes, ...)
T4B90 015:049.350   CPU_ReadMem(24 bytes @ 0x40011000)
T4B90 015:050.293   Data:  C0 00 00 00 00 00 00 00 D9 02 00 00 1C 21 00 00 ...
T4B90 015:050.307 - 0.969ms returns 0
T4B90 015:050.317 JLINK_ReadMem(0x40011018, 0x4 Bytes, ...)
T4B90 015:050.325   CPU_ReadMem(4 bytes @ 0x40011018)
T4B90 015:051.064   Data:  00 00 00 00
T4B90 015:051.070 - 0.754ms returns 0
T19C0 015:051.370 JLINK_IsHalted()
T19C0 015:052.190 - 0.820ms returns FALSE
T19C0 015:152.755 JLINK_HasError()
T19C0 015:152.779 JLINK_IsHalted()
T19C0 015:153.651 - 0.868ms returns FALSE
T19C0 015:254.418 JLINK_HasError()
T19C0 015:254.445 JLINK_IsHalted()
T19C0 015:255.285 - 0.839ms returns FALSE
T19C0 015:356.206 JLINK_HasError()
T19C0 015:356.224 JLINK_IsHalted()
T19C0 015:357.008 - 0.781ms returns FALSE
T19C0 015:457.677 JLINK_HasError()
T19C0 015:457.702 JLINK_IsHalted()
T19C0 015:458.478 - 0.774ms returns FALSE
T19C0 015:559.048 JLINK_HasError()
T19C0 015:559.070 JLINK_IsHalted()
T19C0 015:559.858 - 0.787ms returns FALSE
T19C0 015:660.381 JLINK_HasError()
T19C0 015:660.410 JLINK_HasError()
T19C0 015:660.430 JLINK_ReadMemU32(0xE0001004, 0x1 Items)
T19C0 015:660.446   Data:  E1 00 13 05
T19C0 015:660.454   Debug reg: DWT_CYCCNT
T19C0 015:660.461 - 0.029ms returns 1 (0x1)
T4B90 015:660.506 JLINK_ReadMem(0x40011000, 0x18 Bytes, ...)
T4B90 015:660.526   CPU_ReadMem(24 bytes @ 0x40011000)
T4B90 015:661.486   Data:  C0 00 00 00 00 00 00 00 D9 02 00 00 1C 21 00 00 ...
T4B90 015:661.496 - 0.990ms returns 0
T4B90 015:661.502 JLINK_ReadMem(0x40011018, 0x4 Bytes, ...)
T4B90 015:661.509   CPU_ReadMem(4 bytes @ 0x40011018)
T4B90 015:662.218   Data:  00 00 00 00
T4B90 015:662.226 - 0.722ms returns 0
T19C0 015:662.459 JLINK_IsHalted()
T19C0 015:663.208 - 0.747ms returns FALSE
T19C0 015:763.928 JLINK_HasError()
T19C0 015:763.978 JLINK_IsHalted()
T19C0 015:764.760 - 0.778ms returns FALSE
T19C0 015:865.597 JLINK_HasError()
T19C0 015:865.621 JLINK_IsHalted()
T19C0 015:866.395 - 0.774ms returns FALSE
T19C0 015:966.810 JLINK_HasError()
T19C0 015:966.843 JLINK_IsHalted()
T19C0 015:967.622 - 0.778ms returns FALSE
T19C0 016:068.150 JLINK_HasError()
T19C0 016:068.174 JLINK_IsHalted()
T19C0 016:068.944 - 0.769ms returns FALSE
T19C0 016:169.670 JLINK_HasError()
T19C0 016:169.715 JLINK_IsHalted()
T19C0 016:170.566 - 0.849ms returns FALSE
T19C0 016:271.043 JLINK_HasError()
T19C0 016:271.096 JLINK_HasError()
T19C0 016:271.102 JLINK_ReadMemU32(0xE0001004, 0x1 Items)
T19C0 016:271.118   Data:  E1 00 13 05
T19C0 016:271.126   Debug reg: DWT_CYCCNT
T19C0 016:271.133 - 0.029ms returns 1 (0x1)
T4B90 016:271.182 JLINK_ReadMem(0x40011000, 0x18 Bytes, ...)
T4B90 016:271.203   CPU_ReadMem(24 bytes @ 0x40011000)
T4B90 016:272.141   Data:  C0 00 00 00 00 00 00 00 D9 02 00 00 1C 21 00 00 ...
T4B90 016:272.149 - 0.966ms returns 0
T4B90 016:272.155 JLINK_ReadMem(0x40011018, 0x4 Bytes, ...)
T4B90 016:272.162   CPU_ReadMem(4 bytes @ 0x40011018)
T4B90 016:272.899   Data:  00 00 00 00
T4B90 016:272.906 - 0.750ms returns 0
T19C0 016:273.117 JLINK_IsHalted()
T19C0 016:273.864 - 0.746ms returns FALSE
T19C0 016:374.470 JLINK_HasError()
T19C0 016:374.498 JLINK_IsHalted()
T19C0 016:375.304 - 0.806ms returns FALSE
T19C0 016:475.853 JLINK_HasError()
T19C0 016:475.875 JLINK_IsHalted()
T19C0 016:476.634 - 0.757ms returns FALSE
T19C0 016:577.427 JLINK_HasError()
T19C0 016:577.451 JLINK_IsHalted()
T19C0 016:578.307 - 0.855ms returns FALSE
T19C0 016:678.874 JLINK_HasError()
T19C0 016:678.902 JLINK_IsHalted()
T19C0 016:679.709 - 0.805ms returns FALSE
T19C0 016:780.132 JLINK_HasError()
T19C0 016:780.158 JLINK_IsHalted()
T19C0 016:780.970 - 0.810ms returns FALSE
T19C0 016:881.470 JLINK_HasError()
T19C0 016:881.492 JLINK_HasError()
T19C0 016:881.498 JLINK_ReadMemU32(0xE0001004, 0x1 Items)
T19C0 016:881.512   Data:  E1 00 13 05
T19C0 016:881.520   Debug reg: DWT_CYCCNT
T19C0 016:881.526 - 0.029ms returns 1 (0x1)
T4B90 016:881.914 JLINK_ReadMem(0x40011000, 0x18 Bytes, ...)
T4B90 016:881.932   CPU_ReadMem(24 bytes @ 0x40011000)
T4B90 016:882.938   Data:  C0 00 00 00 00 00 00 00 D9 02 00 00 1C 21 00 00 ...
T4B90 016:882.962 - 1.048ms returns 0
T4B90 016:882.968 JLINK_ReadMem(0x40011018, 0x4 Bytes, ...)
T4B90 016:882.972   CPU_ReadMem(4 bytes @ 0x40011018)
T4B90 016:883.636   Data:  00 00 00 00
T4B90 016:883.642 - 0.673ms returns 0
T19C0 016:883.848 JLINK_IsHalted()
T19C0 016:884.576 - 0.725ms returns FALSE
T19C0 016:984.770 JLINK_HasError()
T19C0 016:984.804 JLINK_IsHalted()
T19C0 016:985.662 - 0.858ms returns FALSE
T19C0 017:086.084 JLINK_HasError()
T19C0 017:086.108 JLINK_IsHalted()
T19C0 017:086.932 - 0.824ms returns FALSE
T19C0 017:187.382 JLINK_HasError()
T19C0 017:187.406 JLINK_IsHalted()
T19C0 017:188.240 - 0.833ms returns FALSE
T19C0 017:288.586 JLINK_HasError()
T19C0 017:288.620 JLINK_IsHalted()
T19C0 017:289.406 - 0.782ms returns FALSE
T19C0 017:390.316 JLINK_HasError()
T19C0 017:390.364 JLINK_HasError()
T19C0 017:390.370 JLINK_ReadMemU32(0xE0001004, 0x1 Items)
T19C0 017:390.384   Data:  E1 00 13 05
T19C0 017:390.392   Debug reg: DWT_CYCCNT
T19C0 017:390.398 - 0.027ms returns 1 (0x1)
T4B90 017:390.518 JLINK_ReadMem(0x40011000, 0x18 Bytes, ...)
T4B90 017:390.540   CPU_ReadMem(24 bytes @ 0x40011000)
T4B90 017:391.540   Data:  C0 00 00 00 00 00 00 00 D9 02 00 00 1C 21 00 00 ...
T4B90 017:391.548 - 1.028ms returns 0
T4B90 017:391.556 JLINK_ReadMem(0x40011018, 0x4 Bytes, ...)
T4B90 017:391.562   CPU_ReadMem(4 bytes @ 0x40011018)
T4B90 017:392.230   Data:  00 00 00 00
T4B90 017:392.240 - 0.685ms returns 0
T19C0 017:393.656 JLINK_IsHalted()
T19C0 017:394.556 - 0.898ms returns FALSE
T19C0 017:494.710 JLINK_HasError()
T19C0 017:494.738 JLINK_IsHalted()
T19C0 017:495.584 - 0.845ms returns FALSE
T19C0 017:596.016 JLINK_HasError()
T19C0 017:596.044 JLINK_IsHalted()
T19C0 017:596.858 - 0.812ms returns FALSE
T19C0 017:697.260 JLINK_HasError()
T19C0 017:697.294 JLINK_IsHalted()
T19C0 017:698.098 - 0.799ms returns FALSE
T19C0 017:798.820 JLINK_HasError()
T19C0 017:798.844 JLINK_IsHalted()
T19C0 017:799.610 - 0.764ms returns FALSE
T19C0 017:899.852 JLINK_HasError()
T19C0 017:899.880 JLINK_IsHalted()
T19C0 017:900.658 - 0.777ms returns FALSE
T19C0 018:000.972 JLINK_HasError()
T19C0 018:000.996 JLINK_HasError()
T19C0 018:001.002 JLINK_ReadMemU32(0xE0001004, 0x1 Items)
T19C0 018:001.018   Data:  E1 00 13 05
T19C0 018:001.024   Debug reg: DWT_CYCCNT
T19C0 018:001.030 - 0.029ms returns 1 (0x1)
T4B90 018:001.072 JLINK_ReadMem(0x40011000, 0x18 Bytes, ...)
T4B90 018:001.096   CPU_ReadMem(24 bytes @ 0x40011000)
T4B90 018:001.998   Data:  C0 00 00 00 00 00 00 00 D9 02 00 00 1C 21 00 00 ...
T4B90 018:002.006 - 0.935ms returns 0
T4B90 018:002.024 JLINK_ReadMem(0x40011018, 0x4 Bytes, ...)
T4B90 018:002.028   CPU_ReadMem(4 bytes @ 0x40011018)
T4B90 018:002.720   Data:  00 00 00 00
T4B90 018:002.728 - 0.705ms returns 0
T19C0 018:002.972 JLINK_IsHalted()
T19C0 018:003.640 - 0.668ms returns FALSE
T19C0 018:103.988 JLINK_HasError()
T19C0 018:104.024 JLINK_IsHalted()
T19C0 018:109.704 - 5.679ms returns TRUE
T19C0 018:109.716 JLINK_HasError()
T19C0 018:109.722 JLINK_Halt()
T19C0 018:109.726 - 0.004ms returns 0x00
T19C0 018:109.732 JLINK_IsHalted()
T19C0 018:109.734 - 0.004ms returns TRUE
T19C0 018:109.740 JLINK_IsHalted()
T19C0 018:109.744 - 0.004ms returns TRUE
T19C0 018:109.748 JLINK_IsHalted()
T19C0 018:109.752 - 0.003ms returns TRUE
T19C0 018:109.756 JLINK_HasError()
T19C0 018:109.764 JLINK_ReadReg(R15 (PC))
T19C0 018:109.770 - 0.006ms returns 0x08004C7E
T19C0 018:109.774 JLINK_ReadReg(XPSR)
T19C0 018:109.780 - 0.004ms returns 0x21000000
T19C0 018:109.786 JLINK_HasError()
T19C0 018:109.790 JLINK_ClrBPEx(BPHandle = 0x00000003)
T19C0 018:109.796 - 0.005ms returns 0x00
T19C0 018:109.800 JLINK_HasError()
T19C0 018:109.804 JLINK_HasError()
T19C0 018:109.812 JLINK_ReadMemU32(0xE000ED30, 0x1 Items)
T19C0 018:109.820   CPU_ReadMem(4 bytes @ 0xE000ED30)
T19C0 018:110.592   Data:  02 00 00 00
T19C0 018:110.622 - 0.812ms returns 1 (0x1)
T19C0 018:110.632 JLINK_ReadMemU32(0xE0001028, 0x1 Items)
T19C0 018:110.644   CPU_ReadMem(4 bytes @ 0xE0001028)
T19C0 018:111.406   Data:  00 00 00 00
T19C0 018:111.420   Debug reg: DWT_FUNC[0]
T19C0 018:111.426 - 0.794ms returns 1 (0x1)
T19C0 018:111.432 JLINK_ReadMemU32(0xE0001038, 0x1 Items)
T19C0 018:111.436   CPU_ReadMem(4 bytes @ 0xE0001038)
T19C0 018:112.110   Data:  00 02 00 00
T19C0 018:112.116   Debug reg: DWT_FUNC[1]
T19C0 018:112.124 - 0.691ms returns 1 (0x1)
T19C0 018:112.128 JLINK_ReadMemU32(0xE0001048, 0x1 Items)
T19C0 018:112.134   CPU_ReadMem(4 bytes @ 0xE0001048)
T19C0 018:112.884   Data:  00 00 00 00
T19C0 018:112.890   Debug reg: DWT_FUNC[2]
T19C0 018:112.896 - 0.767ms returns 1 (0x1)
T19C0 018:112.900 JLINK_ReadMemU32(0xE0001058, 0x1 Items)
T19C0 018:112.906   CPU_ReadMem(4 bytes @ 0xE0001058)
T19C0 018:113.618   Data:  00 00 00 00
T19C0 018:113.626   Debug reg: DWT_FUNC[3]
T19C0 018:113.632 - 0.731ms returns 1 (0x1)
T19C0 018:113.676 JLINK_HasError()
T19C0 018:113.680 JLINK_ReadReg(R0)
T19C0 018:113.684 - 0.005ms returns 0x2000006C
T19C0 018:113.690 JLINK_ReadReg(R1)
T19C0 018:113.694 - 0.004ms returns 0x00000000
T19C0 018:113.700 JLINK_ReadReg(R2)
T19C0 018:113.702 - 0.004ms returns 0x00000320
T19C0 018:113.708 JLINK_ReadReg(R3)
T19C0 018:113.712 - 0.004ms returns 0x0000121F
T19C0 018:113.716 JLINK_ReadReg(R4)
T19C0 018:113.720 - 0.004ms returns 0x200000E0
T19C0 018:113.724 JLINK_ReadReg(R5)
T19C0 018:113.730 - 0.004ms returns 0x00000001
T19C0 018:113.734 JLINK_ReadReg(R6)
T19C0 018:113.740 - 0.004ms returns 0x20000000
T19C0 018:113.744 JLINK_ReadReg(R7)
T19C0 018:113.748 - 0.004ms returns 0x00000005
T19C0 018:113.752 JLINK_ReadReg(R8)
T19C0 018:113.756 - 0.004ms returns 0x00000000
T19C0 018:113.760 JLINK_ReadReg(R9)
T19C0 018:113.764 - 0.004ms returns 0x00000000
T19C0 018:113.770 JLINK_ReadReg(R10)
T19C0 018:113.774 - 0.004ms returns 0x08005B90
T19C0 018:113.778 JLINK_ReadReg(R11)
T19C0 018:113.782 - 0.004ms returns 0x00000000
T19C0 018:113.788 JLINK_ReadReg(R12)
T19C0 018:113.792 - 0.004ms returns 0xE74BCC50
T19C0 018:113.796 JLINK_ReadReg(R13 (SP))
T19C0 018:113.800 - 0.004ms returns 0x20000CA0
T19C0 018:113.804 JLINK_ReadReg(R14)
T19C0 018:113.810 - 0.004ms returns 0x08002F7F
T19C0 018:113.814 JLINK_ReadReg(R15 (PC))
T19C0 018:113.820 - 0.004ms returns 0x08004C7E
T19C0 018:113.822 JLINK_ReadReg(XPSR)
T19C0 018:113.828 - 0.004ms returns 0x21000000
T19C0 018:113.832 JLINK_ReadReg(MSP)
T19C0 018:113.836 - 0.004ms returns 0x20000CA0
T19C0 018:113.842 JLINK_ReadReg(PSP)
T19C0 018:113.844 - 0.004ms returns 0x00000000
T19C0 018:113.850 JLINK_ReadReg(CFBP)
T19C0 018:113.854 - 0.004ms returns 0x04000000
T19C0 018:113.860 JLINK_ReadReg(FPSCR)
T19C0 018:122.368 - 8.508ms returns 0x83000010
T19C0 018:122.382 JLINK_ReadReg(FPS0)
T19C0 018:122.388 - 0.005ms returns 0x44480000
T19C0 018:122.392 JLINK_ReadReg(FPS1)
T19C0 018:122.396 - 0.004ms returns 0xBECB6825
T19C0 018:122.400 JLINK_ReadReg(FPS2)
T19C0 018:122.404 - 0.004ms returns 0x40000000
T19C0 018:122.410 JLINK_ReadReg(FPS3)
T19C0 018:122.412 - 0.003ms returns 0xBECB6825
T19C0 018:122.420 JLINK_ReadReg(FPS4)
T19C0 018:122.422 - 0.003ms returns 0x3EF75A86
T19C0 018:122.428 JLINK_ReadReg(FPS5)
T19C0 018:122.432 - 0.003ms returns 0xB5DB4192
T19C0 018:122.436 JLINK_ReadReg(FPS6)
T19C0 018:122.440 - 0.003ms returns 0x368568FD
T19C0 018:122.444 JLINK_ReadReg(FPS7)
T19C0 018:122.450 - 0.003ms returns 0x3F800000
T19C0 018:122.454 JLINK_ReadReg(FPS8)
T19C0 018:122.460 - 0.003ms returns 0x3A03126F
T19C0 018:122.464 JLINK_ReadReg(FPS9)
T19C0 018:122.468 - 0.003ms returns 0xB5275243
T19C0 018:122.472 JLINK_ReadReg(FPS10)
T19C0 018:122.476 - 0.003ms returns 0x3B83126F
T19C0 018:122.482 JLINK_ReadReg(FPS11)
T19C0 018:122.484 - 0.003ms returns 0x00000000
T19C0 018:122.490 JLINK_ReadReg(FPS12)
T19C0 018:122.494 - 0.003ms returns 0x3F800000
T19C0 018:122.500 JLINK_ReadReg(FPS13)
T19C0 018:122.504 - 0.003ms returns 0x00000000
T19C0 018:122.510 JLINK_ReadReg(FPS14)
T19C0 018:122.516 - 0.004ms returns 0x00000000
T19C0 018:122.520 JLINK_ReadReg(FPS15)
T19C0 018:122.524 - 0.003ms returns 0x00000000
T19C0 018:122.530 JLINK_ReadReg(FPS16)
T19C0 018:122.532 - 0.003ms returns 0x00000000
T19C0 018:122.538 JLINK_ReadReg(FPS17)
T19C0 018:122.542 - 0.003ms returns 0x00000000
T19C0 018:122.548 JLINK_ReadReg(FPS18)
T19C0 018:122.550 - 0.003ms returns 0x00000000
T19C0 018:122.556 JLINK_ReadReg(FPS19)
T19C0 018:122.560 - 0.003ms returns 0x00000000
T19C0 018:122.564 JLINK_ReadReg(FPS20)
T19C0 018:122.570 - 0.003ms returns 0x00000000
T19C0 018:122.574 JLINK_ReadReg(FPS21)
T19C0 018:122.578 - 0.003ms returns 0x00000000
T19C0 018:122.582 JLINK_ReadReg(FPS22)
T19C0 018:122.588 - 0.003ms returns 0x00000000
T19C0 018:122.592 JLINK_ReadReg(FPS23)
T19C0 018:122.596 - 0.003ms returns 0x00000000
T19C0 018:122.602 JLINK_ReadReg(FPS24)
T19C0 018:122.604 - 0.003ms returns 0x00000000
T19C0 018:122.610 JLINK_ReadReg(FPS25)
T19C0 018:122.614 - 0.003ms returns 0x00000000
T19C0 018:122.620 JLINK_ReadReg(FPS26)
T19C0 018:122.622 - 0.003ms returns 0x00000000
T19C0 018:122.628 JLINK_ReadReg(FPS27)
T19C0 018:122.632 - 0.003ms returns 0x00000000
T19C0 018:122.636 JLINK_ReadReg(FPS28)
T19C0 018:122.640 - 0.003ms returns 0x00000000
T19C0 018:122.646 JLINK_ReadReg(FPS29)
T19C0 018:122.650 - 0.003ms returns 0x00000000
T19C0 018:122.654 JLINK_ReadReg(FPS30)
T19C0 018:122.660 - 0.003ms returns 0x00000000
T19C0 018:122.664 JLINK_ReadReg(FPS31)
T19C0 018:122.668 - 0.003ms returns 0x00000000
T4B90 018:123.344 JLINK_ReadMem(0x20000CBC, 0x4 Bytes, ...)
T4B90 018:123.356   CPU_ReadMem(64 bytes @ 0x20000C80)
T4B90 018:124.684    -- Updating C cache (64 bytes @ 0x20000C80)
T4B90 018:124.692    -- Read from C cache (4 bytes @ 0x20000CBC)
T4B90 018:124.700   Data:  7F 2F 00 08
T4B90 018:124.704 - 1.363ms returns 0
T4B90 018:124.956 JLINK_ReadMem(0x20000CA8, 0x4 Bytes, ...)
T4B90 018:124.964    -- Read from C cache (4 bytes @ 0x20000CA8)
T4B90 018:124.970   Data:  04 00 00 20
T4B90 018:124.974 - 0.019ms returns 0
T4B90 018:124.980 JLINK_ReadMem(0x20000CAC, 0x4 Bytes, ...)
T4B90 018:124.984    -- Read from C cache (4 bytes @ 0x20000CAC)
T4B90 018:124.990   Data:  01 00 00 00
T4B90 018:124.996 - 0.015ms returns 0
T4B90 018:125.000 JLINK_ReadMem(0x20000CB0, 0x4 Bytes, ...)
T4B90 018:125.004    -- Read from C cache (4 bytes @ 0x20000CB0)
T4B90 018:125.010   Data:  00 00 00 20
T4B90 018:125.014 - 0.014ms returns 0
T4B90 018:125.020 JLINK_ReadMem(0x20000CB4, 0x4 Bytes, ...)
T4B90 018:125.022    -- Read from C cache (4 bytes @ 0x20000CB4)
T4B90 018:125.028   Data:  05 00 00 00
T4B90 018:125.034 - 0.014ms returns 0
T4B90 018:125.038 JLINK_ReadMem(0x20000CB8, 0x4 Bytes, ...)
T4B90 018:125.042    -- Read from C cache (4 bytes @ 0x20000CB8)
T4B90 018:125.048   Data:  00 00 00 00
T4B90 018:125.052 - 0.014ms returns 0
T4B90 018:125.060 JLINK_ReadMem(0x20000CD4, 0x4 Bytes, ...)
T4B90 018:125.066   CPU_ReadMem(64 bytes @ 0x20000CC0)
T4B90 018:126.440    -- Updating C cache (64 bytes @ 0x20000CC0)
T4B90 018:126.446    -- Read from C cache (4 bytes @ 0x20000CD4)
T4B90 018:126.452   Data:  B1 49 00 08
T4B90 018:126.458 - 1.398ms returns 0
T4B90 018:126.466 JLINK_ReadMem(0x20000CC0, 0x4 Bytes, ...)
T4B90 018:126.470    -- Read from C cache (4 bytes @ 0x20000CC0)
T4B90 018:126.476   Data:  00 00 00 00
T4B90 018:126.480 - 0.015ms returns 0
T4B90 018:126.484 JLINK_ReadMem(0x20000CC4, 0x4 Bytes, ...)
T4B90 018:126.490    -- Read from C cache (4 bytes @ 0x20000CC4)
T4B90 018:126.494   Data:  74 06 00 20
T4B90 018:126.500 - 0.015ms returns 0
T4B90 018:126.504 JLINK_ReadMem(0x20000CC8, 0x4 Bytes, ...)
T4B90 018:126.508    -- Read from C cache (4 bytes @ 0x20000CC8)
T4B90 018:126.514   Data:  00 00 00 00
T4B90 018:126.518 - 0.014ms returns 0
T4B90 018:126.524 JLINK_ReadMem(0x20000CCC, 0x4 Bytes, ...)
T4B90 018:126.528    -- Read from C cache (4 bytes @ 0x20000CCC)
T4B90 018:126.532   Data:  00 00 00 00
T4B90 018:126.540 - 0.014ms returns 0
T4B90 018:126.546 JLINK_ReadMem(0x20000CD0, 0x4 Bytes, ...)
T4B90 018:126.550    -- Read from C cache (4 bytes @ 0x20000CD0)
T4B90 018:126.556   Data:  00 00 00 00
T4B90 018:126.560 - 0.015ms returns 0
T4B90 018:129.536 JLINK_HasError()
T4B90 018:129.548 JLINK_ReadMemU32(0xE0001004, 0x1 Items)
T4B90 018:129.556   Data:  E1 00 13 05
T4B90 018:129.562   Debug reg: DWT_CYCCNT
T4B90 018:129.566 - 0.019ms returns 1 (0x1)
T4B90 018:129.708 JLINK_ReadMem(0x40011000, 0x18 Bytes, ...)
T4B90 018:129.714   CPU_ReadMem(24 bytes @ 0x40011000)
T4B90 018:130.660   Data:  C0 00 00 00 00 00 00 00 D9 02 00 00 1C 21 00 00 ...
T4B90 018:130.668 - 0.962ms returns 0
T4B90 018:130.676 JLINK_ReadMem(0x40011018, 0x4 Bytes, ...)
T4B90 018:130.680   CPU_ReadMem(4 bytes @ 0x40011018)
T4B90 018:131.470   Data:  00 00 00 00
T4B90 018:131.476 - 0.801ms returns 0
T4B90 018:133.658 JLINK_ReadMem(0x08004C7A, 0x2 Bytes, ...)
T4B90 018:133.676   CPU_ReadMem(64 bytes @ 0x08004C40)
T4B90 018:135.060    -- Updating C cache (64 bytes @ 0x08004C40)
T4B90 018:135.084    -- Read from C cache (2 bytes @ 0x08004C7A)
T4B90 018:135.092   Data:  01 7A
T4B90 018:135.100 - 1.442ms returns 0
T4B90 018:135.108 JLINK_ReadMem(0x08004C7C, 0x3C Bytes, ...)
T4B90 018:135.118   CPU_ReadMem(64 bytes @ 0x08004C80)
T4B90 018:136.480    -- Updating C cache (64 bytes @ 0x08004C80)
T4B90 018:136.492    -- Read from C cache (60 bytes @ 0x08004C7C)
T4B90 018:136.500   Data:  21 70 02 79 00 EE 10 2A F8 EE 40 0A 9F ED 60 0A ...
T4B90 018:136.504 - 1.395ms returns 0
T4B90 020:345.456 JLINK_ReadMem(0x2000013C, 0x4 Bytes, ...)
T4B90 020:345.492   CPU_ReadMem(64 bytes @ 0x20000100)
T4B90 020:346.840    -- Updating C cache (64 bytes @ 0x20000100)
T4B90 020:346.860    -- Read from C cache (4 bytes @ 0x2000013C)
T4B90 020:346.868   Data:  00 00 00 00
T4B90 020:346.874 - 1.418ms returns 0
T19C0 026:355.514 JLINK_HasError()
T19C0 026:355.538 JLINK_HasError()
T19C0 026:355.544 JLINK_Go()
T19C0 026:356.332   CPU_ReadMem(4 bytes @ 0xE0001000)
T19C0 026:357.042   CPU_WriteMem(4 bytes @ 0xE0002008)
T19C0 026:358.668 - 3.125ms
T19C0 026:459.362 JLINK_HasError()
T19C0 026:459.386 JLINK_IsHalted()
T19C0 026:460.234 - 0.847ms returns FALSE
T19C0 026:560.618 JLINK_HasError()
T19C0 026:560.642 JLINK_IsHalted()
T19C0 026:561.402 - 0.759ms returns FALSE
T19C0 026:662.096 JLINK_HasError()
T19C0 026:662.120 JLINK_IsHalted()
T19C0 026:662.892 - 0.772ms returns FALSE
T19C0 026:764.008 JLINK_HasError()
T19C0 026:764.028 JLINK_IsHalted()
T19C0 026:764.838 - 0.808ms returns FALSE
T19C0 026:865.136 JLINK_HasError()
T19C0 026:865.200 JLINK_IsHalted()
T19C0 026:865.946 - 0.745ms returns FALSE
T19C0 026:966.140 JLINK_HasError()
T19C0 026:966.164 JLINK_HasError()
T19C0 026:966.170 JLINK_ReadMemU32(0xE0001004, 0x1 Items)
T19C0 026:966.186   CPU_ReadMem(4 bytes @ 0xE0001004)
T19C0 026:966.980   Data:  2D 2B 89 34
T19C0 026:967.004   Debug reg: DWT_CYCCNT
T19C0 026:967.012 - 0.842ms returns 1 (0x1)
T4B90 026:967.146 JLINK_ReadMem(0x40011000, 0x18 Bytes, ...)
T4B90 026:967.158   CPU_ReadMem(24 bytes @ 0x40011000)
T4B90 026:968.108   Data:  C0 00 00 00 00 00 00 00 D9 02 00 00 1C 21 00 00 ...
T4B90 026:968.122 - 0.976ms returns 0
T4B90 026:968.132 JLINK_ReadMem(0x40011018, 0x4 Bytes, ...)
T4B90 026:968.140   CPU_ReadMem(4 bytes @ 0x40011018)
T4B90 026:968.842   Data:  00 00 00 00
T4B90 026:968.848 - 0.718ms returns 0
T19C0 026:969.108 JLINK_IsHalted()
T19C0 026:969.850 - 0.740ms returns FALSE
T19C0 027:070.396 JLINK_HasError()
T19C0 027:070.422 JLINK_IsHalted()
T19C0 027:071.248 - 0.824ms returns FALSE
T19C0 027:171.734 JLINK_HasError()
T19C0 027:171.760 JLINK_IsHalted()
T19C0 027:172.588 - 0.830ms returns FALSE
T19C0 027:272.874 JLINK_HasError()
T19C0 027:272.908 JLINK_IsHalted()
T19C0 027:273.680 - 0.768ms returns FALSE
T19C0 027:374.288 JLINK_HasError()
T19C0 027:374.314 JLINK_IsHalted()
T19C0 027:375.076 - 0.760ms returns FALSE
T19C0 027:475.402 JLINK_HasError()
T19C0 027:475.424 JLINK_HasError()
T19C0 027:475.430 JLINK_ReadMemU32(0xE0001004, 0x1 Items)
T19C0 027:475.450   Data:  2D 2B 89 34
T19C0 027:475.460   Debug reg: DWT_CYCCNT
T19C0 027:475.468 - 0.034ms returns 1 (0x1)
T4B90 027:475.590 JLINK_ReadMem(0x40011000, 0x18 Bytes, ...)
T4B90 027:475.612   CPU_ReadMem(24 bytes @ 0x40011000)
T4B90 027:476.534   Data:  C0 00 00 00 00 00 00 00 D9 02 00 00 1C 21 00 00 ...
T4B90 027:476.548 - 0.956ms returns 0
T4B90 027:476.556 JLINK_ReadMem(0x40011018, 0x4 Bytes, ...)
T4B90 027:476.564   CPU_ReadMem(4 bytes @ 0x40011018)
T4B90 027:477.332   Data:  00 00 00 00
T4B90 027:477.338 - 0.782ms returns 0
T19C0 027:477.548 JLINK_IsHalted()
T19C0 027:478.272 - 0.720ms returns FALSE
T19C0 027:579.052 JLINK_HasError()
T19C0 027:579.088 JLINK_IsHalted()
T19C0 027:579.910 - 0.803ms returns FALSE
T19C0 027:680.300 JLINK_HasError()
